
T03D4 000:379 SEGGER J-Link V4.80g Log File (0001ms, 0265ms total)
T03D4 000:379 DLL Compiled: Feb 13 2014 20:50:02 (0001ms, 0265ms total)
T03D4 000:379 Logging started @ 2016-01-11 11:18 (0001ms, 0265ms total)
T03D4 000:380 JLINK_SetWarnOutHandler(...) (0000ms, 0265ms total)
T03D4 000:380 JLINK_OpenEx(...)
Firmware: J-Link ARM V8 compiled Nov 25 2013 19:20:08
Hardware: V8.00
S/N: 17935099
Feature(s): RDI,FlashDL,FlashBP,JFlash  returns O.K. (0262ms, 0527ms total)
T03D4 000:642 JLINK_SetErrorOutHandler(...) (0000ms, 0527ms total)
T03D4 000:642 JLINK_ExecCommand("ProjectFile = "G:\GitHub\STemWin-MemoryDevice\STemWin-MemoryDevice\USER\JLinkSettings.ini"", ...)  returns 0x00 (0000ms, 0527ms total)
T03D4 000:642 JLINK_ExecCommand("Device = STM32F103RC", ...)Device "STM32F103RC" selected (256 KB flash, 48 KB RAM).  returns 0x00 (0001ms, 0528ms total)
T03D4 000:643 JLINK_ExecCommand("DisableConnectionTimeout", ...)  returns 0x01 (0000ms, 0528ms total)
T03D4 000:643 JLINK_GetHardwareVersion()  returns 0x13880 (0000ms, 0528ms total)
T03D4 000:643 JLINK_GetDLLVersion()  returns 48007 (0000ms, 0528ms total)
T03D4 000:643 JLINK_GetFirmwareString(...) (0000ms, 0528ms total)
T03D4 000:644 JLINK_GetDLLVersion()  returns 48007 (0000ms, 0528ms total)
T03D4 000:644 JLINK_GetCompileDateTime() (0000ms, 0528ms total)
T03D4 000:644 JLINK_GetFirmwareString(...) (0000ms, 0528ms total)
T03D4 000:645 JLINK_GetHardwareVersion()  returns 0x13880 (0000ms, 0528ms total)
T03D4 000:646 JLINK_TIF_Select(JLINKARM_TIF_SWD)  returns 0x00 (0002ms, 0530ms total)
T03D4 000:648 JLINK_SetSpeed(5000) (0001ms, 0531ms total)
T03D4 000:649 JLINK_GetId() >0x108 TIF>Found SWD-DP with ID 0x1BA01477 >0x0D TIF> >0x28 TIF> >0x0D TIF> >0x28 TIF> >0x0D TIF> >0x21 TIF> >0x0D TIF> >0x28 TIF> >0x0D TIF> >0x28 TIF> >0x0D TIF> >0x28 TIF> >0x0D TIF> >0x21 TIF> >0x0D TIF> >0x21 TIF> >0x0D TIF> >0x28 TIF> >0x0D TIF> >0x21 TIF> >0x0D TIF> >0x21 TIF> >0x108 TIF>Found SWD-DP with ID 0x1BA01477 >0x0D TIF> >0x21 TIF> >0x0D TIF> >0x28 TIF> >0x0D TIF> >0x28 TIF> >0x0D TIF> >0x21 TIF> >0x0D TIF> >0x28 TIF> >0x0D TIF> >0x21 TIF> >0x0D TIF> >0x21 TIF>
 >0x0D TIF> >0x21 TIF> >0x0D TIF> >0x21 TIF> >0x0D TIF> >0x28 TIF> >0x0D TIF> >0x28 TIF> >0x0D TIF> >0x21 TIF> >0x0D TIF> >0x28 TIF> >0x0D TIF> >0x28 TIF> >0x0D TIF> >0x28 TIF> >0x0D TIF> >0x21 TIF> >0x0D TIF> >0x21 TIF> >0x0D TIF> >0x28 TIF> >0x0D TIF> >0x21 TIF> >0x0D TIF> >0x21 TIF>Found Cortex-M3 r1p1, Little endian. -- CPU_WriteMem(4 bytes @ 0xE0002000) -- CPU_ReadMem(4 bytes @ 0xE000EDF0) -- CPU_ReadMem(4 bytes @ 0xE0002000)FPUnit: 6 code (BP) slots and 2 literal slots
 -- CPU_ReadMem(4 bytes @ 0xE000EDFC) -- CPU_ReadMem(4 bytes @ 0xE0001000) -- CPU_WriteMem(4 bytes @ 0xE0001000) -- CPU_ReadMem(4 bytes @ 0xE00FF010)TPIU fitted. -- CPU_ReadMem(4 bytes @ 0xE00FF014)ETM fitted. -- CPU_ReadMem(4 bytes @ 0xE00FF018) >0x0D TIF> >0x21 TIF>  returns 0x1BA01477 (0061ms, 0592ms total)
T03D4 000:710 JLINK_GetDeviceFamily()  returns 3 (0000ms, 0592ms total)
T03D4 000:710 JLINK_ReadMem (0xE00FFFF0, 0x0010 Bytes, ...) -- CPU is running -- CPU_ReadMem(16 bytes @ 0xE00FFFF0) -- Data:  0D 00 00 00 10 00 00 00 05 00 00 00 B1 00 00 00  returns 0x00 (0001ms, 0593ms total)
T03D4 000:711 JLINK_ReadMem (0xE00FFFD0, 0x0020 Bytes, ...) -- CPU is running -- CPU_ReadMem(32 bytes @ 0xE00FFFD0) -- Data:  00 00 00 00 00 00 00 00 00 00 00 00 00 00 00 00 ...  returns 0x00 (0001ms, 0594ms total)
T03D4 000:712 JLINK_ReadMem (0xE00FF000, 0x0018 Bytes, ...) -- CPU is running -- CPU_ReadMem(24 bytes @ 0xE00FF000) -- Data:  03 F0 F0 FF 03 20 F0 FF 03 30 F0 FF 03 10 F0 FF ...  returns 0x00 (0001ms, 0595ms total)
T03D4 000:713 JLINK_ReadMemU32(0xE000ED00, 0x0001 Items, ...) -- CPU is running -- CPU_ReadMem(4 bytes @ 0xE000ED00) -- Data:  31 C2 1F 41  returns 0x01 (0001ms, 0596ms total)
T03D4 000:714 JLINK_SetResetType(JLINKARM_RESET_TYPE_NORMAL)  returns JLINKARM_RESET_TYPE_NORMAL (0000ms, 0596ms total)
T03D4 000:714 JLINK_Reset() -- CPU is running -- CPU_WriteMem(4 bytes @ 0xE000EDF0) -- CPU is running -- CPU_WriteMem(4 bytes @ 0xE000EDFC) >0x35 TIF> -- CPU is running -- CPU_WriteMem(4 bytes @ 0xE000ED0C) -- CPU is running -- CPU_ReadMem(4 bytes @ 0xE000EDF0) -- CPU is running -- CPU_ReadMem(4 bytes @ 0xE000EDF0) -- CPU is running -- CPU_WriteMem(4 bytes @ 0xE000EDF0) -- CPU is running -- CPU_WriteMem(4 bytes @ 0xE000EDFC) -- CPU is running -- CPU_ReadMem(4 bytes @ 0xE000EDF0)
 -- CPU_WriteMem(4 bytes @ 0xE0002000) -- CPU_ReadMem(4 bytes @ 0xE000EDFC) -- CPU_ReadMem(4 bytes @ 0xE0001000) (0022ms, 0618ms total)
T03D4 000:736 JLINK_ReadReg(R15 (PC))  returns 0x08008A34 (0000ms, 0618ms total)
T03D4 000:736 JLINK_ReadReg(XPSR)  returns 0x01000000 (0000ms, 0618ms total)
T03D4 000:737 JLINK_Halt()  returns 0x00 (0000ms, 0619ms total)
T03D4 000:737 JLINK_IsHalted()  returns TRUE (0000ms, 0619ms total)
T03D4 000:737 JLINK_ReadMemU32(0xE000EDF0, 0x0001 Items, ...) -- CPU_ReadMem(4 bytes @ 0xE000EDF0) -- Data:  03 00 03 00  returns 0x01 (0001ms, 0620ms total)
T03D4 000:738 JLINK_WriteU32(0xE000EDF0, 0xA05F0003) -- CPU_WriteMem(4 bytes @ 0xE000EDF0)  returns 0x00 (0001ms, 0621ms total)
T03D4 000:739 JLINK_WriteU32(0xE000EDFC, 0x01000000) -- CPU_WriteMem(4 bytes @ 0xE000EDFC)  returns 0x00 (0001ms, 0622ms total)
T03D4 000:740 JLINK_GetHWStatus(...)  returns 0x00 (0001ms, 0623ms total)
T03D4 000:741 JLINK_GetNumBPUnits(Type = 0xFFFFFF00)  returns 0x06 (0000ms, 0623ms total)
T03D4 000:741 JLINK_GetNumBPUnits(Type = 0xF0)  returns 0x2000 (0000ms, 0623ms total)
T03D4 000:741 JLINK_GetNumWPUnits()  returns 0x04 (0000ms, 0623ms total)
T03D4 000:741 JLINK_GetSpeed()  returns 0xFA0 (0000ms, 0623ms total)
T03D4 000:741 JLINK_ReadMemU32(0xE000E004, 0x0001 Items, ...) -- CPU_ReadMem(4 bytes @ 0xE000E004) -- Data:  01 00 00 00  returns 0x01 (0001ms, 0624ms total)
T03D4 000:742 JLINK_ReadMemU32(0xE000E004, 0x0001 Items, ...) -- CPU_ReadMem(4 bytes @ 0xE000E004) -- Data:  01 00 00 00  returns 0x01 (0001ms, 0625ms total)
T03D4 000:743 JLINK_WriteMem(0xE0001000, 0x001C Bytes, ...) -- Data:  01 00 00 00 00 00 00 00 00 00 00 00 00 00 00 00 ... -- CPU_WriteMem(28 bytes @ 0xE0001000)  returns 0x1C (0002ms, 0627ms total)
T03D4 000:745 JLINK_ReadMem (0xE0001000, 0x001C Bytes, ...) -- CPU_ReadMem(28 bytes @ 0xE0001000) -- Data:  01 00 00 40 00 00 00 00 00 00 00 00 00 00 00 00 ...  returns 0x00 (0002ms, 0629ms total)
T03D4 000:747 JLINK_ReadReg(R15 (PC))  returns 0x08008A34 (0000ms, 0629ms total)
T03D4 000:747 JLINK_ReadReg(XPSR)  returns 0x01000000 (0000ms, 0629ms total)
T03D4 000:902 JLINK_SetResetType(JLINKARM_RESET_TYPE_NORMAL)  returns JLINKARM_RESET_TYPE_NORMAL (0000ms, 0629ms total)
T03D4 000:902 JLINK_Reset() -- CPU_WriteMem(4 bytes @ 0xE000EDF0) -- CPU_WriteMem(4 bytes @ 0xE000EDFC) >0x35 TIF> -- CPU_WriteMem(4 bytes @ 0xE000ED0C) -- CPU_ReadMem(4 bytes @ 0xE000EDF0) -- CPU_ReadMem(4 bytes @ 0xE000EDF0) -- CPU_WriteMem(4 bytes @ 0xE000EDF0) -- CPU_WriteMem(4 bytes @ 0xE000EDFC) -- CPU is running -- CPU_ReadMem(4 bytes @ 0xE000EDF0) -- CPU_WriteMem(4 bytes @ 0xE0002000) -- CPU_ReadMem(4 bytes @ 0xE000EDFC) -- CPU_ReadMem(4 bytes @ 0xE0001000) (0020ms, 0649ms total)
T03D4 000:922 JLINK_ReadReg(R15 (PC))  returns 0x08008A34 (0000ms, 0649ms total)
T03D4 000:922 JLINK_ReadReg(XPSR)  returns 0x01000000 (0000ms, 0649ms total)
T03D4 001:065 JLINK_ReadMem (0x08008A34, 0x003C Bytes, ...) -- CPU_ReadMem(128 bytes @ 0x08008A00) -- Updating C cache (128 bytes @ 0x08008A00) -- Read from C cache (60 bytes @ 0x08008A34) -- Data:  09 48 80 47 09 48 00 47 FE E7 FE E7 FE E7 FE E7 ...  returns 0x00 (0003ms, 0652ms total)
T23AC 002:066 JLINK_SetBPEx(Addr = 0x080004AA, Type = 0xFFFFFFF2)  returns 0x00000001 (0000ms, 0652ms total)
T23AC 002:066 JLINK_Go() -- CPU_WriteMem(4 bytes @ 0xE0002000) -- CPU_WriteMem(4 bytes @ 0xE0002008) -- CPU_WriteMem(4 bytes @ 0xE000200C) -- CPU_WriteMem(4 bytes @ 0xE0002010) -- CPU_WriteMem(4 bytes @ 0xE0002014) -- CPU_WriteMem(4 bytes @ 0xE0002018) -- CPU_WriteMem(4 bytes @ 0xE000201C) -- CPU_WriteMem(4 bytes @ 0xE0001004) (0007ms, 0659ms total)
T23AC 002:173 JLINK_IsHalted()  returns TRUE (0003ms, 0662ms total)
T23AC 002:176 JLINK_Halt()  returns 0x00 (0000ms, 0659ms total)
T23AC 002:176 JLINK_IsHalted()  returns TRUE (0000ms, 0659ms total)
T23AC 002:176 JLINK_IsHalted()  returns TRUE (0000ms, 0659ms total)
T23AC 002:176 JLINK_IsHalted()  returns TRUE (0000ms, 0659ms total)
T23AC 002:176 JLINK_ReadReg(R15 (PC))  returns 0x080004AA (0000ms, 0659ms total)
T23AC 002:176 JLINK_ReadReg(XPSR)  returns 0x21000000 (0000ms, 0659ms total)
T23AC 002:176 JLINK_ClrBPEx(BPHandle = 0x00000001)  returns 0x00 (0000ms, 0659ms total)
T23AC 002:176 JLINK_ReadMemU32(0xE000ED30, 0x0001 Items, ...) -- CPU_ReadMem(4 bytes @ 0xE000ED30) -- Data:  03 00 00 00  returns 0x01 (0001ms, 0660ms total)
T23AC 002:177 JLINK_ReadMemU32(0xE0001028, 0x0001 Items, ...) -- CPU_ReadMem(4 bytes @ 0xE0001028) -- Data:  00 00 00 00  returns 0x01 (0001ms, 0661ms total)
T23AC 002:178 JLINK_ReadMemU32(0xE0001038, 0x0001 Items, ...) -- CPU_ReadMem(4 bytes @ 0xE0001038) -- Data:  00 02 00 00  returns 0x01 (0001ms, 0662ms total)
T23AC 002:179 JLINK_ReadMemU32(0xE0001048, 0x0001 Items, ...) -- CPU_ReadMem(4 bytes @ 0xE0001048) -- Data:  00 00 00 00  returns 0x01 (0001ms, 0663ms total)
T23AC 002:180 JLINK_ReadMemU32(0xE0001058, 0x0001 Items, ...) -- CPU_ReadMem(4 bytes @ 0xE0001058) -- Data:  00 00 00 00  returns 0x01 (0001ms, 0664ms total)
T23AC 002:181 JLINK_ReadReg(R0)  returns 0x2000B380 (0000ms, 0664ms total)
T23AC 002:181 JLINK_ReadReg(R1)  returns 0x2000B580 (0000ms, 0664ms total)
T23AC 002:181 JLINK_ReadReg(R2)  returns 0x2000B580 (0000ms, 0664ms total)
T23AC 002:181 JLINK_ReadReg(R3)  returns 0x2000B580 (0000ms, 0664ms total)
T23AC 002:181 JLINK_ReadReg(R4)  returns 0x00000000 (0000ms, 0664ms total)
T23AC 002:181 JLINK_ReadReg(R5)  returns 0x2000B31C (0000ms, 0664ms total)
T23AC 002:181 JLINK_ReadReg(R6)  returns 0x00000000 (0000ms, 0664ms total)
T23AC 002:181 JLINK_ReadReg(R7)  returns 0x00000000 (0000ms, 0664ms total)
T23AC 002:181 JLINK_ReadReg(R8)  returns 0x00000000 (0000ms, 0664ms total)
T23AC 002:181 JLINK_ReadReg(R9)  returns 0x09090909 (0000ms, 0664ms total)
T23AC 002:181 JLINK_ReadReg(R10)  returns 0x0801EDD0 (0000ms, 0664ms total)
T23AC 002:181 JLINK_ReadReg(R11)  returns 0x00000000 (0000ms, 0664ms total)
T23AC 002:181 JLINK_ReadReg(R12)  returns 0x2000B35C (0000ms, 0664ms total)
T23AC 002:181 JLINK_ReadReg(R13 (SP))  returns 0x2000BD80 (0000ms, 0664ms total)
T23AC 002:181 JLINK_ReadReg(R14)  returns 0x0800021D (0000ms, 0664ms total)
T23AC 002:181 JLINK_ReadReg(R15 (PC))  returns 0x080004AA (0000ms, 0664ms total)
T23AC 002:181 JLINK_ReadReg(XPSR)  returns 0x21000000 (0000ms, 0664ms total)
T23AC 002:181 JLINK_ReadReg(MSP)  returns 0x2000BD80 (0000ms, 0664ms total)
T23AC 002:181 JLINK_ReadReg(PSP)  returns 0x20003724 (0000ms, 0664ms total)
T23AC 002:181 JLINK_ReadReg(CFBP)  returns 0x00000000 (0000ms, 0664ms total)
T03D4 002:186 JLINK_ReadMemU32(0xE0001004, 0x0001 Items, ...) -- CPU_ReadMem(4 bytes @ 0xE0001004) -- Data:  45 9A 00 00  returns 0x01 (0001ms, 0665ms total)
T03D4 002:187 JLINK_ReadMem (0x080004AA, 0x0002 Bytes, ...) -- CPU_ReadMem(64 bytes @ 0x08000480) -- Updating C cache (64 bytes @ 0x08000480) -- Read from C cache (2 bytes @ 0x080004AA) -- Data:  10 B5  returns 0x00 (0001ms, 0666ms total)
T03D4 002:188 JLINK_ReadMem (0x080004AC, 0x003C Bytes, ...) -- CPU_ReadMem(64 bytes @ 0x080004C0) -- Updating C cache (64 bytes @ 0x080004C0) -- Read from C cache (60 bytes @ 0x080004AC) -- Data:  FF F7 BE FE 0A F0 C2 FB 14 23 3F 4A 00 21 AF F2 ...  returns 0x00 (0002ms, 0668ms total)
T23AC 006:339 JLINK_SetBPEx(Addr = 0x0800039E, Type = 0xFFFFFFF2)  returns 0x00000002 (0000ms, 0668ms total)
T23AC 006:339 JLINK_Go() -- CPU_WriteMem(4 bytes @ 0xE0002000) -- CPU_WriteMem(4 bytes @ 0xE0002008) (0004ms, 0672ms total)
T23AC 006:443 JLINK_IsHalted()  returns FALSE (0000ms, 0672ms total)
T23AC 006:543 JLINK_IsHalted()  returns FALSE (0001ms, 0673ms total)
T23AC 006:644 JLINK_IsHalted()  returns FALSE (0000ms, 0672ms total)
T23AC 006:744 JLINK_IsHalted()  returns FALSE (0001ms, 0673ms total)
T23AC 006:845 JLINK_IsHalted()  returns FALSE (0001ms, 0673ms total)
T23AC 006:946 JLINK_IsHalted()  returns FALSE (0000ms, 0672ms total)
T23AC 007:046 JLINK_IsHalted()  returns FALSE (0001ms, 0673ms total)
T23AC 007:147 JLINK_IsHalted()  returns FALSE (0000ms, 0672ms total)
T23AC 007:247 JLINK_IsHalted()  returns FALSE (0000ms, 0672ms total)
T23AC 007:347 JLINK_IsHalted()  returns FALSE (0001ms, 0673ms total)
T23AC 007:448 JLINK_IsHalted()  returns FALSE (0001ms, 0673ms total)
T23AC 007:549 JLINK_IsHalted()  returns FALSE (0000ms, 0672ms total)
T23AC 007:649 JLINK_IsHalted()  returns TRUE (0004ms, 0676ms total)
T23AC 007:653 JLINK_Halt()  returns 0x00 (0000ms, 0672ms total)
T23AC 007:653 JLINK_IsHalted()  returns TRUE (0000ms, 0672ms total)
T23AC 007:653 JLINK_IsHalted()  returns TRUE (0000ms, 0672ms total)
T23AC 007:653 JLINK_IsHalted()  returns TRUE (0000ms, 0672ms total)
T23AC 007:653 JLINK_ReadReg(R15 (PC))  returns 0x0800039E (0000ms, 0672ms total)
T23AC 007:653 JLINK_ReadReg(XPSR)  returns 0x61000000 (0000ms, 0672ms total)
T23AC 007:653 JLINK_ClrBPEx(BPHandle = 0x00000002)  returns 0x00 (0000ms, 0672ms total)
T23AC 007:653 JLINK_ReadMemU32(0xE000ED30, 0x0001 Items, ...) -- CPU_ReadMem(4 bytes @ 0xE000ED30) -- Data:  03 00 00 00  returns 0x01 (0001ms, 0673ms total)
T23AC 007:654 JLINK_ReadMemU32(0xE0001028, 0x0001 Items, ...) -- CPU_ReadMem(4 bytes @ 0xE0001028) -- Data:  00 00 00 00  returns 0x01 (0001ms, 0674ms total)
T23AC 007:655 JLINK_ReadMemU32(0xE0001038, 0x0001 Items, ...) -- CPU_ReadMem(4 bytes @ 0xE0001038) -- Data:  00 02 00 00  returns 0x01 (0001ms, 0675ms total)
T23AC 007:656 JLINK_ReadMemU32(0xE0001048, 0x0001 Items, ...) -- CPU_ReadMem(4 bytes @ 0xE0001048) -- Data:  00 00 00 00  returns 0x01 (0001ms, 0676ms total)
T23AC 007:657 JLINK_ReadMemU32(0xE0001058, 0x0001 Items, ...) -- CPU_ReadMem(4 bytes @ 0xE0001058) -- Data:  00 00 00 00  returns 0x01 (0001ms, 0677ms total)
T23AC 007:658 JLINK_ReadReg(R0)  returns 0x0000058E (0000ms, 0677ms total)
T23AC 007:658 JLINK_ReadReg(R1)  returns 0x00000000 (0000ms, 0677ms total)
T23AC 007:658 JLINK_ReadReg(R2)  returns 0x20009A7C (0000ms, 0677ms total)
T23AC 007:658 JLINK_ReadReg(R3)  returns 0x00C50001 (0000ms, 0677ms total)
T23AC 007:658 JLINK_ReadReg(R4)  returns 0x04040404 (0000ms, 0677ms total)
T23AC 007:658 JLINK_ReadReg(R5)  returns 0x05050505 (0000ms, 0677ms total)
T23AC 007:658 JLINK_ReadReg(R6)  returns 0x06060606 (0000ms, 0677ms total)
T23AC 007:658 JLINK_ReadReg(R7)  returns 0x07070707 (0000ms, 0677ms total)
T23AC 007:658 JLINK_ReadReg(R8)  returns 0x08080808 (0000ms, 0677ms total)
T23AC 007:658 JLINK_ReadReg(R9)  returns 0x09090909 (0000ms, 0677ms total)
T23AC 007:658 JLINK_ReadReg(R10)  returns 0x10101010 (0000ms, 0677ms total)
T23AC 007:658 JLINK_ReadReg(R11)  returns 0x11111111 (0000ms, 0677ms total)
T23AC 007:658 JLINK_ReadReg(R12)  returns 0x2000B12C (0000ms, 0677ms total)
T23AC 007:658 JLINK_ReadReg(R13 (SP))  returns 0x20000624 (0000ms, 0677ms total)
T23AC 007:658 JLINK_ReadReg(R14)  returns 0x0800D0FB (0000ms, 0677ms total)
T23AC 007:658 JLINK_ReadReg(R15 (PC))  returns 0x0800039E (0000ms, 0677ms total)
T23AC 007:658 JLINK_ReadReg(XPSR)  returns 0x61000000 (0000ms, 0677ms total)
T23AC 007:658 JLINK_ReadReg(MSP)  returns 0x2000BD50 (0000ms, 0677ms total)
T23AC 007:658 JLINK_ReadReg(PSP)  returns 0x20000624 (0000ms, 0677ms total)
T23AC 007:658 JLINK_ReadReg(CFBP)  returns 0x02000000 (0000ms, 0677ms total)
T03D4 007:659 JLINK_ReadMem (0x20000630, 0x0004 Bytes, ...) -- CPU_ReadMem(64 bytes @ 0x20000600) -- Updating C cache (64 bytes @ 0x20000600) -- Read from C cache (4 bytes @ 0x20000630) -- Data:  00 00 00 00  returns 0x00 (0002ms, 0679ms total)
T03D4 007:669 JLINK_ReadMemU32(0xE0001004, 0x0001 Items, ...) -- CPU_ReadMem(4 bytes @ 0xE0001004) -- Data:  8E 08 51 05  returns 0x01 (0001ms, 0680ms total)
T03D4 007:670 JLINK_ReadMem (0x0800039E, 0x0002 Bytes, ...) -- CPU_ReadMem(64 bytes @ 0x08000380) -- Updating C cache (64 bytes @ 0x08000380) -- Read from C cache (2 bytes @ 0x0800039E) -- Data:  54 4E  returns 0x00 (0001ms, 0681ms total)
T03D4 007:671 JLINK_ReadMem (0x080003A0, 0x003C Bytes, ...) -- CPU_ReadMem(64 bytes @ 0x080003C0) -- Updating C cache (64 bytes @ 0x080003C0) -- Read from C cache (60 bytes @ 0x080003A0) -- Data:  B6 F9 06 60 52 4F B7 F9 02 70 F3 1B 50 4E B6 F9 ...  returns 0x00 (0002ms, 0683ms total)
T23AC 009:831 JLINK_Step() -- Read from C cache (2 bytes @ 0x0800039E) -- CPU_ReadMem(64 bytes @ 0x080004C0) -- Updating C cache (64 bytes @ 0x080004C0) -- Read from C cache (4 bytes @ 0x080004F0) -- Simulated  returns 0x00 (0003ms, 0686ms total)
T23AC 009:834 JLINK_ReadReg(R15 (PC))  returns 0x080003A0 (0000ms, 0686ms total)
T23AC 009:834 JLINK_ReadReg(XPSR)  returns 0x61000000 (0000ms, 0686ms total)
T23AC 009:834 JLINK_Step() -- Read from C cache (2 bytes @ 0x080003A0) -- Read from C cache (2 bytes @ 0x080003A2) -- Not simulated -- CPU_WriteMem(4 bytes @ 0xE0002008) -- CPU_WriteMem(4 bytes @ 0xE0001004)  returns 0x00 (0006ms, 0692ms total)
T23AC 009:840 JLINK_ReadReg(R15 (PC))  returns 0x080003A4 (0000ms, 0692ms total)
T23AC 009:840 JLINK_ReadReg(XPSR)  returns 0x61000000 (0000ms, 0692ms total)
T23AC 009:840 JLINK_Step() -- CPU_ReadMem(64 bytes @ 0x08000380) -- Updating C cache (64 bytes @ 0x08000380) -- Read from C cache (2 bytes @ 0x080003A4) -- CPU_ReadMem(4 bytes @ 0xE0001004) -- CPU_ReadMem(64 bytes @ 0x080004C0) -- Updating C cache (64 bytes @ 0x080004C0) -- Read from C cache (4 bytes @ 0x080004F0) -- Simulated  returns 0x00 (0004ms, 0696ms total)
T23AC 009:844 JLINK_ReadReg(R15 (PC))  returns 0x080003A6 (0000ms, 0696ms total)
T23AC 009:844 JLINK_ReadReg(XPSR)  returns 0x61000000 (0000ms, 0696ms total)
T23AC 009:844 JLINK_Step() -- Read from C cache (2 bytes @ 0x080003A6) -- Read from C cache (2 bytes @ 0x080003A8) -- Not simulated -- CPU_WriteMem(4 bytes @ 0xE0001004)  returns 0x00 (0005ms, 0701ms total)
T23AC 009:849 JLINK_ReadReg(R15 (PC))  returns 0x080003AA (0000ms, 0701ms total)
T23AC 009:849 JLINK_ReadReg(XPSR)  returns 0x61000000 (0000ms, 0701ms total)
T23AC 009:850 JLINK_Step() -- CPU_ReadMem(64 bytes @ 0x08000380) -- Updating C cache (64 bytes @ 0x08000380) -- Read from C cache (2 bytes @ 0x080003AA) -- CPU_ReadMem(4 bytes @ 0xE0001004) -- Simulated  returns 0x00 (0002ms, 0704ms total)
T23AC 009:852 JLINK_ReadReg(R15 (PC))  returns 0x080003AC (0000ms, 0704ms total)
T23AC 009:852 JLINK_ReadReg(XPSR)  returns 0x21000000 (0000ms, 0704ms total)
T23AC 009:852 JLINK_Step() -- Read from C cache (2 bytes @ 0x080003AC) -- CPU_ReadMem(64 bytes @ 0x080004C0) -- Updating C cache (64 bytes @ 0x080004C0) -- Read from C cache (4 bytes @ 0x080004F0) -- Simulated  returns 0x00 (0001ms, 0705ms total)
T23AC 009:853 JLINK_ReadReg(R15 (PC))  returns 0x080003AE (0000ms, 0705ms total)
T23AC 009:853 JLINK_ReadReg(XPSR)  returns 0x21000000 (0000ms, 0705ms total)
T23AC 009:853 JLINK_Step() -- Read from C cache (2 bytes @ 0x080003AE) -- Read from C cache (2 bytes @ 0x080003B0) -- Not simulated -- CPU_WriteMem(4 bytes @ 0xE0001004)  returns 0x00 (0006ms, 0711ms total)
T23AC 009:859 JLINK_ReadReg(R15 (PC))  returns 0x080003B2 (0000ms, 0711ms total)
T23AC 009:859 JLINK_ReadReg(XPSR)  returns 0x21000000 (0000ms, 0711ms total)
T23AC 009:859 JLINK_Step() -- CPU_ReadMem(64 bytes @ 0x08000380) -- Updating C cache (64 bytes @ 0x08000380) -- Read from C cache (2 bytes @ 0x080003B2) -- CPU_ReadMem(4 bytes @ 0xE0001004) -- CPU_ReadMem(64 bytes @ 0x080004C0) -- Updating C cache (64 bytes @ 0x080004C0) -- Read from C cache (4 bytes @ 0x080004F0) -- Simulated  returns 0x00 (0003ms, 0714ms total)
T23AC 009:862 JLINK_ReadReg(R15 (PC))  returns 0x080003B4 (0000ms, 0714ms total)
T23AC 009:862 JLINK_ReadReg(XPSR)  returns 0x21000000 (0000ms, 0714ms total)
T23AC 009:862 JLINK_Step() -- Read from C cache (2 bytes @ 0x080003B4) -- Read from C cache (2 bytes @ 0x080003B6) -- Not simulated -- CPU_WriteMem(4 bytes @ 0xE0001004)  returns 0x00 (0006ms, 0720ms total)
T23AC 009:869 JLINK_ReadReg(R15 (PC))  returns 0x080003B8 (0000ms, 0720ms total)
T23AC 009:869 JLINK_ReadReg(XPSR)  returns 0x21000000 (0000ms, 0720ms total)
T23AC 009:869 JLINK_Step() -- CPU_ReadMem(64 bytes @ 0x08000380) -- Updating C cache (64 bytes @ 0x08000380) -- Read from C cache (2 bytes @ 0x080003B8) -- CPU_ReadMem(4 bytes @ 0xE0001004) -- Simulated  returns 0x00 (0002ms, 0722ms total)
T23AC 009:871 JLINK_ReadReg(R15 (PC))  returns 0x080003BA (0000ms, 0722ms total)
T23AC 009:871 JLINK_ReadReg(XPSR)  returns 0x21000000 (0000ms, 0722ms total)
T23AC 009:871 JLINK_Step() -- Read from C cache (2 bytes @ 0x080003BA) -- CPU_ReadMem(64 bytes @ 0x080004C0) -- Updating C cache (64 bytes @ 0x080004C0) -- Read from C cache (4 bytes @ 0x080004F0) -- Simulated  returns 0x00 (0001ms, 0723ms total)
T23AC 009:872 JLINK_ReadReg(R15 (PC))  returns 0x080003BC (0000ms, 0723ms total)
T23AC 009:872 JLINK_ReadReg(XPSR)  returns 0x21000000 (0000ms, 0723ms total)
T23AC 009:872 JLINK_Step() -- Read from C cache (2 bytes @ 0x080003BC) -- Read from C cache (2 bytes @ 0x080003BE) -- Not simulated -- CPU_WriteMem(4 bytes @ 0xE0001004)  returns 0x00 (0006ms, 0729ms total)
T23AC 009:878 JLINK_ReadReg(R15 (PC))  returns 0x080003C0 (0000ms, 0729ms total)
T23AC 009:878 JLINK_ReadReg(XPSR)  returns 0x21000000 (0000ms, 0729ms total)
T23AC 009:878 JLINK_Step() -- CPU_ReadMem(64 bytes @ 0x080003C0) -- Updating C cache (64 bytes @ 0x080003C0) -- Read from C cache (2 bytes @ 0x080003C0) -- CPU_ReadMem(4 bytes @ 0xE0001004) -- Read from C cache (2 bytes @ 0x080003C2) -- Not simulated  returns 0x00 (0007ms, 0736ms total)
T23AC 009:885 JLINK_ReadReg(R15 (PC))  returns 0x080003C4 (0000ms, 0736ms total)
T23AC 009:885 JLINK_ReadReg(XPSR)  returns 0x21000000 (0000ms, 0736ms total)
T23AC 009:885 JLINK_SetBPEx(Addr = 0x080003C8, Type = 0xFFFFFFF2)  returns 0x00000003 (0000ms, 0736ms total)
T23AC 009:885 JLINK_Go() -- CPU_WriteMem(4 bytes @ 0xE0002000) -- CPU_WriteMem(4 bytes @ 0xE0002008) (0004ms, 0740ms total)
T23AC 009:989 JLINK_IsHalted()  returns TRUE (0004ms, 0744ms total)
T23AC 009:993 JLINK_Halt()  returns 0x00 (0000ms, 0740ms total)
T23AC 009:993 JLINK_IsHalted()  returns TRUE (0000ms, 0740ms total)
T23AC 009:993 JLINK_IsHalted()  returns TRUE (0000ms, 0740ms total)
T23AC 009:993 JLINK_IsHalted()  returns TRUE (0000ms, 0740ms total)
T23AC 009:993 JLINK_ReadReg(R15 (PC))  returns 0x080003C8 (0001ms, 0741ms total)
T23AC 009:994 JLINK_ReadReg(XPSR)  returns 0x21000000 (0000ms, 0741ms total)
T23AC 009:994 JLINK_ClrBPEx(BPHandle = 0x00000003)  returns 0x00 (0000ms, 0741ms total)
T23AC 009:994 JLINK_ReadMemU32(0xE000ED30, 0x0001 Items, ...) -- CPU_ReadMem(4 bytes @ 0xE000ED30) -- Data:  03 00 00 00  returns 0x01 (0000ms, 0741ms total)
T23AC 009:994 JLINK_ReadMemU32(0xE0001028, 0x0001 Items, ...) -- CPU_ReadMem(4 bytes @ 0xE0001028) -- Data:  00 00 00 00  returns 0x01 (0001ms, 0742ms total)
T23AC 009:995 JLINK_ReadMemU32(0xE0001038, 0x0001 Items, ...) -- CPU_ReadMem(4 bytes @ 0xE0001038) -- Data:  00 02 00 00  returns 0x01 (0001ms, 0743ms total)
T23AC 009:996 JLINK_ReadMemU32(0xE0001048, 0x0001 Items, ...) -- CPU_ReadMem(4 bytes @ 0xE0001048) -- Data:  00 00 00 00  returns 0x01 (0001ms, 0744ms total)
T23AC 009:997 JLINK_ReadMemU32(0xE0001058, 0x0001 Items, ...) -- CPU_ReadMem(4 bytes @ 0xE0001058) -- Data:  00 00 00 00  returns 0x01 (0001ms, 0745ms total)
T23AC 009:998 JLINK_Step() -- CPU_ReadMem(64 bytes @ 0x080003C0) -- Updating C cache (64 bytes @ 0x080003C0) -- Read from C cache (2 bytes @ 0x080003C8) -- CPU_ReadMem(4 bytes @ 0xE0001004) -- Simulated  returns 0x00 (0002ms, 0747ms total)
T23AC 010:000 JLINK_ReadReg(R15 (PC))  returns 0x080003CA (0000ms, 0747ms total)
T23AC 010:000 JLINK_ReadReg(XPSR)  returns 0x21000000 (0000ms, 0747ms total)
T23AC 010:000 JLINK_ReadReg(R0)  returns 0x00000004 (0000ms, 0747ms total)
T23AC 010:000 JLINK_ReadReg(R1)  returns 0x00000000 (0000ms, 0747ms total)
T23AC 010:000 JLINK_ReadReg(R2)  returns 0x0801E7F0 (0000ms, 0747ms total)
T23AC 010:000 JLINK_ReadReg(R3)  returns 0x00000000 (0000ms, 0747ms total)
T23AC 010:000 JLINK_ReadReg(R4)  returns 0x04040404 (0000ms, 0747ms total)
T23AC 010:000 JLINK_ReadReg(R5)  returns 0x00000004 (0000ms, 0747ms total)
T23AC 010:000 JLINK_ReadReg(R6)  returns 0x20000000 (0000ms, 0747ms total)
T23AC 010:000 JLINK_ReadReg(R7)  returns 0x00000000 (0000ms, 0747ms total)
T23AC 010:000 JLINK_ReadReg(R8)  returns 0x08080808 (0000ms, 0747ms total)
T23AC 010:000 JLINK_ReadReg(R9)  returns 0x09090909 (0000ms, 0747ms total)
T23AC 010:000 JLINK_ReadReg(R10)  returns 0x10101010 (0000ms, 0747ms total)
T23AC 010:000 JLINK_ReadReg(R11)  returns 0x11111111 (0000ms, 0747ms total)
T23AC 010:000 JLINK_ReadReg(R12)  returns 0x2000B12C (0000ms, 0747ms total)
T23AC 010:000 JLINK_ReadReg(R13 (SP))  returns 0x20000624 (0000ms, 0747ms total)
T23AC 010:000 JLINK_ReadReg(R14)  returns 0x0800A673 (0000ms, 0747ms total)
T23AC 010:000 JLINK_ReadReg(R15 (PC))  returns 0x080003CA (0000ms, 0747ms total)
T23AC 010:000 JLINK_ReadReg(XPSR)  returns 0x21000000 (0000ms, 0747ms total)
T23AC 010:000 JLINK_ReadReg(MSP)  returns 0x2000BD50 (0001ms, 0748ms total)
T23AC 010:001 JLINK_ReadReg(PSP)  returns 0x20000624 (0000ms, 0748ms total)
T23AC 010:001 JLINK_ReadReg(CFBP)  returns 0x02000000 (0000ms, 0748ms total)
T03D4 010:001 JLINK_ReadMem (0x20000628, 0x0004 Bytes, ...) -- CPU_ReadMem(64 bytes @ 0x20000600) -- Updating C cache (64 bytes @ 0x20000600) -- Read from C cache (4 bytes @ 0x20000628) -- Data:  00 00 00 00  returns 0x00 (0002ms, 0750ms total)
T03D4 010:003 JLINK_ReadMemU32(0xE0001004, 0x0001 Items, ...) -- Data:  71 43 51 05  returns 0x01 (0000ms, 0750ms total)
T03D4 010:003 JLINK_ReadMem (0x080003CA, 0x0002 Bytes, ...) -- Read from C cache (2 bytes @ 0x080003CA) -- Data:  28 46  returns 0x00 (0000ms, 0750ms total)
T03D4 010:004 JLINK_ReadMem (0x080003CC, 0x0034 Bytes, ...) -- Read from C cache (52 bytes @ 0x080003CC) -- Data:  0F F0 34 F9 00 20 FF F7 68 FF 00 20 0F F0 2E F9 ...  returns 0x00 (0000ms, 0750ms total)
T03D4 010:004 JLINK_ReadMem (0x08000400, 0x0008 Bytes, ...) -- CPU_ReadMem(64 bytes @ 0x08000400) -- Updating C cache (64 bytes @ 0x08000400) -- Read from C cache (8 bytes @ 0x08000400) -- Data:  0E F0 E2 FB 3A 48 B0 F9  returns 0x00 (0001ms, 0751ms total)
T23AC 012:022 JLINK_Step() -- Read from C cache (2 bytes @ 0x080003CA) -- Simulated  returns 0x00 (0002ms, 0753ms total)
T23AC 012:024 JLINK_ReadReg(R15 (PC))  returns 0x080003CC (0000ms, 0753ms total)
T23AC 012:024 JLINK_ReadReg(XPSR)  returns 0x21000000 (0000ms, 0753ms total)
T23AC 012:024 JLINK_SetBPEx(Addr = 0x080003D0, Type = 0xFFFFFFF2)  returns 0x00000004 (0000ms, 0753ms total)
T23AC 012:024 JLINK_Go() -- CPU_WriteMem(4 bytes @ 0xE0002000) -- CPU_WriteMem(4 bytes @ 0xE0002008) -- CPU_WriteMem(4 bytes @ 0xE0001004) (0004ms, 0757ms total)
T23AC 012:128 JLINK_IsHalted()  returns TRUE (0003ms, 0760ms total)
T23AC 012:131 JLINK_Halt()  returns 0x00 (0000ms, 0757ms total)
T23AC 012:131 JLINK_IsHalted()  returns TRUE (0000ms, 0757ms total)
T23AC 012:131 JLINK_IsHalted()  returns TRUE (0000ms, 0757ms total)
T23AC 012:131 JLINK_IsHalted()  returns TRUE (0000ms, 0757ms total)
T23AC 012:131 JLINK_ReadReg(R15 (PC))  returns 0x080003D0 (0000ms, 0757ms total)
T23AC 012:131 JLINK_ReadReg(XPSR)  returns 0x21000000 (0000ms, 0757ms total)
T23AC 012:131 JLINK_ClrBPEx(BPHandle = 0x00000004)  returns 0x00 (0000ms, 0757ms total)
T23AC 012:131 JLINK_ReadMemU32(0xE000ED30, 0x0001 Items, ...) -- CPU_ReadMem(4 bytes @ 0xE000ED30) -- Data:  03 00 00 00  returns 0x01 (0001ms, 0758ms total)
T23AC 012:132 JLINK_ReadMemU32(0xE0001028, 0x0001 Items, ...) -- CPU_ReadMem(4 bytes @ 0xE0001028) -- Data:  00 00 00 00  returns 0x01 (0001ms, 0759ms total)
T23AC 012:133 JLINK_ReadMemU32(0xE0001038, 0x0001 Items, ...) -- CPU_ReadMem(4 bytes @ 0xE0001038) -- Data:  00 02 00 00  returns 0x01 (0001ms, 0760ms total)
T23AC 012:134 JLINK_ReadMemU32(0xE0001048, 0x0001 Items, ...) -- CPU_ReadMem(4 bytes @ 0xE0001048) -- Data:  00 00 00 00  returns 0x01 (0000ms, 0760ms total)
T23AC 012:134 JLINK_ReadMemU32(0xE0001058, 0x0001 Items, ...) -- CPU_ReadMem(4 bytes @ 0xE0001058) -- Data:  00 00 00 00  returns 0x01 (0001ms, 0761ms total)
T23AC 012:136 JLINK_ReadReg(R0)  returns 0x00000000 (0000ms, 0761ms total)
T23AC 012:136 JLINK_ReadReg(R1)  returns 0x00000000 (0000ms, 0761ms total)
T23AC 012:136 JLINK_ReadReg(R2)  returns 0x20004C84 (0000ms, 0761ms total)
T23AC 012:136 JLINK_ReadReg(R3)  returns 0x00000000 (0000ms, 0761ms total)
T23AC 012:136 JLINK_ReadReg(R4)  returns 0x04040404 (0000ms, 0761ms total)
T23AC 012:136 JLINK_ReadReg(R5)  returns 0x00000004 (0000ms, 0761ms total)
T23AC 012:136 JLINK_ReadReg(R6)  returns 0x20000000 (0000ms, 0761ms total)
T23AC 012:136 JLINK_ReadReg(R7)  returns 0x00000000 (0000ms, 0761ms total)
T23AC 012:136 JLINK_ReadReg(R8)  returns 0x08080808 (0000ms, 0761ms total)
T23AC 012:136 JLINK_ReadReg(R9)  returns 0x09090909 (0000ms, 0761ms total)
T23AC 012:136 JLINK_ReadReg(R10)  returns 0x10101010 (0000ms, 0761ms total)
T23AC 012:136 JLINK_ReadReg(R11)  returns 0x11111111 (0000ms, 0761ms total)
T23AC 012:136 JLINK_ReadReg(R12)  returns 0x2000B12C (0000ms, 0761ms total)
T23AC 012:136 JLINK_ReadReg(R13 (SP))  returns 0x20000624 (0000ms, 0761ms total)
T23AC 012:136 JLINK_ReadReg(R14)  returns 0x0800A673 (0000ms, 0761ms total)
T23AC 012:136 JLINK_ReadReg(R15 (PC))  returns 0x080003D0 (0000ms, 0761ms total)
T23AC 012:136 JLINK_ReadReg(XPSR)  returns 0x21000000 (0000ms, 0761ms total)
T23AC 012:136 JLINK_ReadReg(MSP)  returns 0x2000BD50 (0000ms, 0761ms total)
T23AC 012:136 JLINK_ReadReg(PSP)  returns 0x20000624 (0000ms, 0761ms total)
T23AC 012:136 JLINK_ReadReg(CFBP)  returns 0x02000000 (0000ms, 0761ms total)
T03D4 012:136 JLINK_ReadMem (0x20000628, 0x0004 Bytes, ...) -- CPU_ReadMem(64 bytes @ 0x20000600) -- Updating C cache (64 bytes @ 0x20000600) -- Read from C cache (4 bytes @ 0x20000628) -- Data:  00 00 00 00  returns 0x00 (0001ms, 0762ms total)
T03D4 012:138 JLINK_ReadMemU32(0xE0001004, 0x0001 Items, ...) -- CPU_ReadMem(4 bytes @ 0xE0001004) -- Data:  88 47 51 05  returns 0x01 (0001ms, 0763ms total)
T03D4 012:139 JLINK_ReadMem (0x080003D0, 0x0030 Bytes, ...) -- CPU_ReadMem(64 bytes @ 0x080003C0) -- Updating C cache (64 bytes @ 0x080003C0) -- Read from C cache (48 bytes @ 0x080003D0) -- Data:  00 20 FF F7 68 FF 00 20 0F F0 2E F9 2E E0 00 24 ...  returns 0x00 (0001ms, 0764ms total)
T03D4 012:140 JLINK_ReadMem (0x08000400, 0x000C Bytes, ...) -- CPU_ReadMem(64 bytes @ 0x08000400) -- Updating C cache (64 bytes @ 0x08000400) -- Read from C cache (12 bytes @ 0x08000400) -- Data:  0E F0 E2 FB 3A 48 B0 F9 02 20 64 21  returns 0x00 (0001ms, 0765ms total)
T23AC 012:630 JLINK_Step() -- Read from C cache (2 bytes @ 0x080003D0) -- Simulated  returns 0x00 (0001ms, 0766ms total)
T23AC 012:631 JLINK_ReadReg(R15 (PC))  returns 0x080003D2 (0000ms, 0766ms total)
T23AC 012:631 JLINK_ReadReg(XPSR)  returns 0x61000000 (0000ms, 0766ms total)
T23AC 012:631 JLINK_SetBPEx(Addr = 0x080003D6, Type = 0xFFFFFFF2)  returns 0x00000005 (0000ms, 0766ms total)
T23AC 012:631 JLINK_Go() -- CPU_WriteMem(4 bytes @ 0xE0002000) -- CPU_WriteMem(4 bytes @ 0xE0002008) -- CPU_WriteMem(4 bytes @ 0xE0001004) (0004ms, 0770ms total)
T23AC 012:735 JLINK_IsHalted()  returns TRUE (0003ms, 0773ms total)
T23AC 012:738 JLINK_Halt()  returns 0x00 (0000ms, 0770ms total)
T23AC 012:738 JLINK_IsHalted()  returns TRUE (0000ms, 0770ms total)
T23AC 012:738 JLINK_IsHalted()  returns TRUE (0000ms, 0770ms total)
T23AC 012:738 JLINK_IsHalted()  returns TRUE (0000ms, 0770ms total)
T23AC 012:738 JLINK_ReadReg(R15 (PC))  returns 0x080003D6 (0000ms, 0770ms total)
T23AC 012:738 JLINK_ReadReg(XPSR)  returns 0x61000000 (0000ms, 0770ms total)
T23AC 012:738 JLINK_ClrBPEx(BPHandle = 0x00000005)  returns 0x00 (0000ms, 0770ms total)
T23AC 012:738 JLINK_ReadMemU32(0xE000ED30, 0x0001 Items, ...) -- CPU_ReadMem(4 bytes @ 0xE000ED30) -- Data:  03 00 00 00  returns 0x01 (0000ms, 0770ms total)
T23AC 012:738 JLINK_ReadMemU32(0xE0001028, 0x0001 Items, ...) -- CPU_ReadMem(4 bytes @ 0xE0001028) -- Data:  00 00 00 00  returns 0x01 (0001ms, 0771ms total)
T23AC 012:739 JLINK_ReadMemU32(0xE0001038, 0x0001 Items, ...) -- CPU_ReadMem(4 bytes @ 0xE0001038) -- Data:  00 02 00 00  returns 0x01 (0001ms, 0772ms total)
T23AC 012:740 JLINK_ReadMemU32(0xE0001048, 0x0001 Items, ...) -- CPU_ReadMem(4 bytes @ 0xE0001048) -- Data:  00 00 00 00  returns 0x01 (0001ms, 0773ms total)
T23AC 012:741 JLINK_ReadMemU32(0xE0001058, 0x0001 Items, ...) -- CPU_ReadMem(4 bytes @ 0xE0001058) -- Data:  00 00 00 00  returns 0x01 (0001ms, 0774ms total)
T23AC 012:742 JLINK_ReadReg(R0)  returns 0x00000596 (0000ms, 0774ms total)
T23AC 012:742 JLINK_ReadReg(R1)  returns 0x00000000 (0000ms, 0774ms total)
T23AC 012:742 JLINK_ReadReg(R2)  returns 0x0000000E (0000ms, 0774ms total)
T23AC 012:742 JLINK_ReadReg(R3)  returns 0x00007FFF (0000ms, 0774ms total)
T23AC 012:742 JLINK_ReadReg(R4)  returns 0x04040404 (0000ms, 0774ms total)
T23AC 012:742 JLINK_ReadReg(R5)  returns 0x00000004 (0000ms, 0774ms total)
T23AC 012:742 JLINK_ReadReg(R6)  returns 0x20000000 (0000ms, 0774ms total)
T23AC 012:742 JLINK_ReadReg(R7)  returns 0x00000000 (0000ms, 0774ms total)
T23AC 012:742 JLINK_ReadReg(R8)  returns 0x08080808 (0000ms, 0774ms total)
T23AC 012:742 JLINK_ReadReg(R9)  returns 0x09090909 (0000ms, 0774ms total)
T23AC 012:742 JLINK_ReadReg(R10)  returns 0x10101010 (0000ms, 0774ms total)
T23AC 012:742 JLINK_ReadReg(R11)  returns 0x11111111 (0000ms, 0774ms total)
T23AC 012:742 JLINK_ReadReg(R12)  returns 0x00000002 (0000ms, 0774ms total)
T23AC 012:742 JLINK_ReadReg(R13 (SP))  returns 0x20000624 (0000ms, 0774ms total)
T23AC 012:742 JLINK_ReadReg(R14)  returns 0x0800D0FB (0000ms, 0774ms total)
T23AC 012:742 JLINK_ReadReg(R15 (PC))  returns 0x080003D6 (0000ms, 0774ms total)
T23AC 012:742 JLINK_ReadReg(XPSR)  returns 0x61000000 (0000ms, 0774ms total)
T23AC 012:742 JLINK_ReadReg(MSP)  returns 0x2000BD50 (0000ms, 0774ms total)
T23AC 012:742 JLINK_ReadReg(PSP)  returns 0x20000624 (0000ms, 0774ms total)
T23AC 012:742 JLINK_ReadReg(CFBP)  returns 0x02000000 (0000ms, 0774ms total)
T03D4 012:742 JLINK_ReadMem (0x20000630, 0x0004 Bytes, ...) -- CPU_ReadMem(64 bytes @ 0x20000600) -- Updating C cache (64 bytes @ 0x20000600) -- Read from C cache (4 bytes @ 0x20000630) -- Data:  00 00 00 00  returns 0x00 (0002ms, 0776ms total)
T03D4 012:744 JLINK_ReadMemU32(0xE0001004, 0x0001 Items, ...) -- CPU_ReadMem(4 bytes @ 0xE0001004) -- Data:  8B D8 55 05  returns 0x01 (0001ms, 0777ms total)
T03D4 012:745 JLINK_ReadMem (0x080003D6, 0x0002 Bytes, ...) -- CPU_ReadMem(64 bytes @ 0x080003C0) -- Updating C cache (64 bytes @ 0x080003C0) -- Read from C cache (2 bytes @ 0x080003D6) -- Data:  00 20  returns 0x00 (0001ms, 0778ms total)
T03D4 012:746 JLINK_ReadMem (0x080003D8, 0x0028 Bytes, ...) -- Read from C cache (40 bytes @ 0x080003D8) -- Data:  0F F0 2E F9 2E E0 00 24 18 E0 4F F4 C8 70 0E F0 ...  returns 0x00 (0000ms, 0778ms total)
T03D4 012:746 JLINK_ReadMem (0x08000400, 0x0014 Bytes, ...) -- CPU_ReadMem(64 bytes @ 0x08000400) -- Updating C cache (64 bytes @ 0x08000400) -- Read from C cache (20 bytes @ 0x08000400) -- Data:  0E F0 E2 FB 3A 48 B0 F9 02 20 64 21 28 46 0E F0 ...  returns 0x00 (0002ms, 0780ms total)
T23AC 014:614 JLINK_Step() -- Read from C cache (2 bytes @ 0x080003D6) -- Simulated  returns 0x00 (0001ms, 0781ms total)
T23AC 014:615 JLINK_ReadReg(R15 (PC))  returns 0x080003D8 (0000ms, 0781ms total)
T23AC 014:615 JLINK_ReadReg(XPSR)  returns 0x61000000 (0000ms, 0781ms total)
T23AC 014:615 JLINK_SetBPEx(Addr = 0x080003DC, Type = 0xFFFFFFF2)  returns 0x00000006 (0000ms, 0781ms total)
T23AC 014:615 JLINK_Go() -- CPU_WriteMem(4 bytes @ 0xE0002000) -- CPU_WriteMem(4 bytes @ 0xE0002008) -- CPU_WriteMem(4 bytes @ 0xE0001004) (0010ms, 0791ms total)
T23AC 014:725 JLINK_IsHalted()  returns TRUE (0003ms, 0794ms total)
T23AC 014:728 JLINK_Halt()  returns 0x00 (0000ms, 0791ms total)
T23AC 014:728 JLINK_IsHalted()  returns TRUE (0000ms, 0791ms total)
T23AC 014:728 JLINK_IsHalted()  returns TRUE (0000ms, 0791ms total)
T23AC 014:728 JLINK_IsHalted()  returns TRUE (0000ms, 0791ms total)
T23AC 014:728 JLINK_ReadReg(R15 (PC))  returns 0x080003DC (0000ms, 0791ms total)
T23AC 014:728 JLINK_ReadReg(XPSR)  returns 0x21000000 (0000ms, 0791ms total)
T23AC 014:728 JLINK_ClrBPEx(BPHandle = 0x00000006)  returns 0x00 (0000ms, 0791ms total)
T23AC 014:728 JLINK_ReadMemU32(0xE000ED30, 0x0001 Items, ...) -- CPU_ReadMem(4 bytes @ 0xE000ED30) -- Data:  03 00 00 00  returns 0x01 (0001ms, 0792ms total)
T23AC 014:729 JLINK_ReadMemU32(0xE0001028, 0x0001 Items, ...) -- CPU_ReadMem(4 bytes @ 0xE0001028) -- Data:  00 00 00 00  returns 0x01 (0001ms, 0793ms total)
T23AC 014:730 JLINK_ReadMemU32(0xE0001038, 0x0001 Items, ...) -- CPU_ReadMem(4 bytes @ 0xE0001038) -- Data:  00 02 00 00  returns 0x01 (0000ms, 0793ms total)
T23AC 014:730 JLINK_ReadMemU32(0xE0001048, 0x0001 Items, ...) -- CPU_ReadMem(4 bytes @ 0xE0001048) -- Data:  00 00 00 00  returns 0x01 (0002ms, 0795ms total)
T23AC 014:732 JLINK_ReadMemU32(0xE0001058, 0x0001 Items, ...) -- CPU_ReadMem(4 bytes @ 0xE0001058) -- Data:  00 00 00 00  returns 0x01 (0001ms, 0796ms total)
T23AC 014:733 JLINK_ReadReg(R0)  returns 0x00000004 (0000ms, 0796ms total)
T23AC 014:733 JLINK_ReadReg(R1)  returns 0x00000000 (0000ms, 0796ms total)
T23AC 014:733 JLINK_ReadReg(R2)  returns 0x00000000 (0000ms, 0796ms total)
T23AC 014:733 JLINK_ReadReg(R3)  returns 0x00007FFF (0000ms, 0796ms total)
T23AC 014:733 JLINK_ReadReg(R4)  returns 0x04040404 (0000ms, 0796ms total)
T23AC 014:733 JLINK_ReadReg(R5)  returns 0x00000004 (0000ms, 0796ms total)
T23AC 014:733 JLINK_ReadReg(R6)  returns 0x20000000 (0000ms, 0796ms total)
T23AC 014:733 JLINK_ReadReg(R7)  returns 0x00000000 (0000ms, 0796ms total)
T23AC 014:733 JLINK_ReadReg(R8)  returns 0x08080808 (0000ms, 0796ms total)
T23AC 014:733 JLINK_ReadReg(R9)  returns 0x09090909 (0000ms, 0796ms total)
T23AC 014:733 JLINK_ReadReg(R10)  returns 0x10101010 (0000ms, 0796ms total)
T23AC 014:733 JLINK_ReadReg(R11)  returns 0x11111111 (0000ms, 0796ms total)
T23AC 014:733 JLINK_ReadReg(R12)  returns 0x00000002 (0000ms, 0796ms total)
T23AC 014:733 JLINK_ReadReg(R13 (SP))  returns 0x20000624 (0000ms, 0796ms total)
T23AC 014:733 JLINK_ReadReg(R14)  returns 0x0800A673 (0000ms, 0796ms total)
T23AC 014:733 JLINK_ReadReg(R15 (PC))  returns 0x080003DC (0000ms, 0796ms total)
T23AC 014:733 JLINK_ReadReg(XPSR)  returns 0x21000000 (0000ms, 0796ms total)
T23AC 014:733 JLINK_ReadReg(MSP)  returns 0x2000BD50 (0000ms, 0796ms total)
T23AC 014:733 JLINK_ReadReg(PSP)  returns 0x20000624 (0000ms, 0796ms total)
T23AC 014:733 JLINK_ReadReg(CFBP)  returns 0x02000000 (0000ms, 0796ms total)
T03D4 014:733 JLINK_ReadMem (0x20000628, 0x0004 Bytes, ...) -- CPU_ReadMem(64 bytes @ 0x20000600) -- Updating C cache (64 bytes @ 0x20000600) -- Read from C cache (4 bytes @ 0x20000628) -- Data:  00 00 00 00  returns 0x00 (0002ms, 0798ms total)
T03D4 014:735 JLINK_ReadMemU32(0xE0001004, 0x0001 Items, ...) -- CPU_ReadMem(4 bytes @ 0xE0001004) -- Data:  8D DB 55 05  returns 0x01 (0000ms, 0798ms total)
T23AC 015:094 JLINK_ReadMem (0x080003DC, 0x0024 Bytes, ...) -- CPU_ReadMem(64 bytes @ 0x080003C0) -- Updating C cache (64 bytes @ 0x080003C0) -- Read from C cache (36 bytes @ 0x080003DC) -- Data:  2E E0 00 24 18 E0 4F F4 C8 70 0E F0 EF FB 41 48 ...  returns 0x00 (0001ms, 0799ms total)
T23AC 015:095 JLINK_ReadMem (0x08000400, 0x0018 Bytes, ...) -- CPU_ReadMem(64 bytes @ 0x08000400) -- Updating C cache (64 bytes @ 0x08000400) -- Read from C cache (24 bytes @ 0x08000400) -- Data:  0E F0 E2 FB 3A 48 B0 F9 02 20 64 21 28 46 0E F0 ...  returns 0x00 (0002ms, 0801ms total)
T23AC 015:097 JLINK_Step() -- Read from C cache (2 bytes @ 0x080003DC) -- Simulated  returns 0x00 (0000ms, 0801ms total)
T23AC 015:097 JLINK_ReadReg(R15 (PC))  returns 0x0800043C (0000ms, 0801ms total)
T23AC 015:097 JLINK_ReadReg(XPSR)  returns 0x21000000 (0000ms, 0801ms total)
T23AC 015:097 JLINK_ReadReg(R0)  returns 0x00000004 (0000ms, 0801ms total)
T23AC 015:097 JLINK_ReadReg(R1)  returns 0x00000000 (0000ms, 0801ms total)
T23AC 015:097 JLINK_ReadReg(R2)  returns 0x00000000 (0000ms, 0801ms total)
T23AC 015:097 JLINK_ReadReg(R3)  returns 0x00007FFF (0000ms, 0801ms total)
T23AC 015:097 JLINK_ReadReg(R4)  returns 0x04040404 (0000ms, 0801ms total)
T23AC 015:097 JLINK_ReadReg(R5)  returns 0x00000004 (0000ms, 0801ms total)
T23AC 015:097 JLINK_ReadReg(R6)  returns 0x20000000 (0000ms, 0801ms total)
T23AC 015:097 JLINK_ReadReg(R7)  returns 0x00000000 (0000ms, 0801ms total)
T23AC 015:097 JLINK_ReadReg(R8)  returns 0x08080808 (0000ms, 0801ms total)
T23AC 015:097 JLINK_ReadReg(R9)  returns 0x09090909 (0000ms, 0801ms total)
T23AC 015:097 JLINK_ReadReg(R10)  returns 0x10101010 (0000ms, 0801ms total)
T23AC 015:097 JLINK_ReadReg(R11)  returns 0x11111111 (0000ms, 0801ms total)
T23AC 015:097 JLINK_ReadReg(R12)  returns 0x00000002 (0000ms, 0801ms total)
T23AC 015:097 JLINK_ReadReg(R13 (SP))  returns 0x20000624 (0000ms, 0801ms total)
T23AC 015:097 JLINK_ReadReg(R14)  returns 0x0800A673 (0000ms, 0801ms total)
T23AC 015:097 JLINK_ReadReg(R15 (PC))  returns 0x0800043C (0000ms, 0801ms total)
T23AC 015:097 JLINK_ReadReg(XPSR)  returns 0x21000000 (0000ms, 0801ms total)
T23AC 015:097 JLINK_ReadReg(MSP)  returns 0x2000BD50 (0000ms, 0801ms total)
T23AC 015:097 JLINK_ReadReg(PSP)  returns 0x20000624 (0000ms, 0801ms total)
T23AC 015:097 JLINK_ReadReg(CFBP)  returns 0x02000000 (0000ms, 0801ms total)
T03D4 015:100 JLINK_ReadMem (0x20000628, 0x0004 Bytes, ...) -- Read from C cache (4 bytes @ 0x20000628) -- Data:  00 00 00 00  returns 0x00 (0000ms, 0801ms total)
T03D4 015:100 JLINK_ReadMemU32(0xE0001004, 0x0001 Items, ...) -- Data:  8D DB 55 05  returns 0x01 (0000ms, 0801ms total)
T03D4 015:100 JLINK_ReadMem (0x0800043C, 0x003C Bytes, ...) -- CPU_ReadMem(64 bytes @ 0x08000440) -- Updating C cache (64 bytes @ 0x08000440) -- Read from C cache (60 bytes @ 0x0800043C) -- Data:  CF E7 FF F7 7B FF 07 E0 0F F0 8C FD 0A 23 00 22 ...  returns 0x00 (0002ms, 0803ms total)
T23AC 015:462 JLINK_Step() -- Read from C cache (2 bytes @ 0x0800043C) -- Simulated  returns 0x00 (0001ms, 0804ms total)
T23AC 015:463 JLINK_ReadReg(R15 (PC))  returns 0x080003DE (0000ms, 0804ms total)
T23AC 015:463 JLINK_ReadReg(XPSR)  returns 0x21000000 (0000ms, 0804ms total)
T23AC 015:463 JLINK_ReadReg(R0)  returns 0x00000004 (0000ms, 0804ms total)
T23AC 015:463 JLINK_ReadReg(R1)  returns 0x00000000 (0000ms, 0804ms total)
T23AC 015:463 JLINK_ReadReg(R2)  returns 0x00000000 (0000ms, 0804ms total)
T23AC 015:463 JLINK_ReadReg(R3)  returns 0x00007FFF (0000ms, 0804ms total)
T23AC 015:463 JLINK_ReadReg(R4)  returns 0x04040404 (0000ms, 0804ms total)
T23AC 015:463 JLINK_ReadReg(R5)  returns 0x00000004 (0000ms, 0804ms total)
T23AC 015:463 JLINK_ReadReg(R6)  returns 0x20000000 (0000ms, 0804ms total)
T23AC 015:463 JLINK_ReadReg(R7)  returns 0x00000000 (0000ms, 0804ms total)
T23AC 015:463 JLINK_ReadReg(R8)  returns 0x08080808 (0000ms, 0804ms total)
T23AC 015:463 JLINK_ReadReg(R9)  returns 0x09090909 (0000ms, 0804ms total)
T23AC 015:463 JLINK_ReadReg(R10)  returns 0x10101010 (0000ms, 0804ms total)
T23AC 015:463 JLINK_ReadReg(R11)  returns 0x11111111 (0000ms, 0804ms total)
T23AC 015:463 JLINK_ReadReg(R12)  returns 0x00000002 (0000ms, 0804ms total)
T23AC 015:463 JLINK_ReadReg(R13 (SP))  returns 0x20000624 (0000ms, 0804ms total)
T23AC 015:463 JLINK_ReadReg(R14)  returns 0x0800A673 (0000ms, 0804ms total)
T23AC 015:463 JLINK_ReadReg(R15 (PC))  returns 0x080003DE (0000ms, 0804ms total)
T23AC 015:463 JLINK_ReadReg(XPSR)  returns 0x21000000 (0000ms, 0804ms total)
T23AC 015:463 JLINK_ReadReg(MSP)  returns 0x2000BD50 (0000ms, 0804ms total)
T23AC 015:463 JLINK_ReadReg(PSP)  returns 0x20000624 (0000ms, 0804ms total)
T23AC 015:463 JLINK_ReadReg(CFBP)  returns 0x02000000 (0000ms, 0804ms total)
T03D4 015:468 JLINK_ReadMem (0x20000628, 0x0004 Bytes, ...) -- Read from C cache (4 bytes @ 0x20000628) -- Data:  00 00 00 00  returns 0x00 (0000ms, 0804ms total)
T03D4 015:468 JLINK_ReadMemU32(0xE0001004, 0x0001 Items, ...) -- Data:  8D DB 55 05  returns 0x01 (0000ms, 0804ms total)
T03D4 015:468 JLINK_ReadMem (0x080003DE, 0x0002 Bytes, ...) -- Read from C cache (2 bytes @ 0x080003DE) -- Data:  00 24  returns 0x00 (0000ms, 0804ms total)
T03D4 015:468 JLINK_ReadMem (0x080003E0, 0x0020 Bytes, ...) -- Read from C cache (32 bytes @ 0x080003E0) -- Data:  18 E0 4F F4 C8 70 0E F0 EF FB 41 48 B0 F9 06 30 ...  returns 0x00 (0000ms, 0804ms total)
T03D4 015:468 JLINK_ReadMem (0x08000400, 0x001C Bytes, ...) -- Read from C cache (28 bytes @ 0x08000400) -- Data:  0E F0 E2 FB 3A 48 B0 F9 02 20 64 21 28 46 0E F0 ...  returns 0x00 (0000ms, 0804ms total)
T23AC 015:895 JLINK_Step() -- Read from C cache (2 bytes @ 0x080003DE) -- Simulated  returns 0x00 (0000ms, 0804ms total)
T23AC 015:895 JLINK_ReadReg(R15 (PC))  returns 0x080003E0 (0000ms, 0804ms total)
T23AC 015:895 JLINK_ReadReg(XPSR)  returns 0x61000000 (0000ms, 0804ms total)
T23AC 015:895 JLINK_Step() -- Read from C cache (2 bytes @ 0x080003E0) -- Simulated  returns 0x00 (0000ms, 0804ms total)
T23AC 015:895 JLINK_ReadReg(R15 (PC))  returns 0x08000414 (0000ms, 0804ms total)
T23AC 015:895 JLINK_ReadReg(XPSR)  returns 0x61000000 (0000ms, 0804ms total)
T23AC 015:895 JLINK_Step() -- Read from C cache (2 bytes @ 0x08000414) -- Simulated  returns 0x00 (0000ms, 0804ms total)
T23AC 015:895 JLINK_ReadReg(R15 (PC))  returns 0x08000416 (0000ms, 0804ms total)
T23AC 015:895 JLINK_ReadReg(XPSR)  returns 0x81000000 (0000ms, 0804ms total)
T23AC 015:895 JLINK_Step() -- Read from C cache (2 bytes @ 0x08000416) -- Simulated  returns 0x00 (0000ms, 0804ms total)
T23AC 015:895 JLINK_ReadReg(R15 (PC))  returns 0x080003E2 (0000ms, 0804ms total)
T23AC 015:895 JLINK_ReadReg(XPSR)  returns 0x81000000 (0000ms, 0804ms total)
T23AC 015:895 JLINK_ReadReg(R0)  returns 0x00000004 (0000ms, 0804ms total)
T23AC 015:895 JLINK_ReadReg(R1)  returns 0x00000000 (0000ms, 0804ms total)
T23AC 015:895 JLINK_ReadReg(R2)  returns 0x00000000 (0001ms, 0805ms total)
T23AC 015:896 JLINK_ReadReg(R3)  returns 0x00007FFF (0000ms, 0805ms total)
T23AC 015:896 JLINK_ReadReg(R4)  returns 0x00000000 (0000ms, 0805ms total)
T23AC 015:896 JLINK_ReadReg(R5)  returns 0x00000004 (0000ms, 0805ms total)
T23AC 015:896 JLINK_ReadReg(R6)  returns 0x20000000 (0000ms, 0805ms total)
T23AC 015:896 JLINK_ReadReg(R7)  returns 0x00000000 (0000ms, 0805ms total)
T23AC 015:896 JLINK_ReadReg(R8)  returns 0x08080808 (0000ms, 0805ms total)
T23AC 015:896 JLINK_ReadReg(R9)  returns 0x09090909 (0000ms, 0805ms total)
T23AC 015:896 JLINK_ReadReg(R10)  returns 0x10101010 (0000ms, 0805ms total)
T23AC 015:896 JLINK_ReadReg(R11)  returns 0x11111111 (0000ms, 0805ms total)
T23AC 015:896 JLINK_ReadReg(R12)  returns 0x00000002 (0000ms, 0805ms total)
T23AC 015:896 JLINK_ReadReg(R13 (SP))  returns 0x20000624 (0000ms, 0805ms total)
T23AC 015:896 JLINK_ReadReg(R14)  returns 0x0800A673 (0000ms, 0805ms total)
T23AC 015:896 JLINK_ReadReg(R15 (PC))  returns 0x080003E2 (0000ms, 0805ms total)
T23AC 015:896 JLINK_ReadReg(XPSR)  returns 0x81000000 (0000ms, 0805ms total)
T23AC 015:896 JLINK_ReadReg(MSP)  returns 0x2000BD50 (0000ms, 0805ms total)
T23AC 015:896 JLINK_ReadReg(PSP)  returns 0x20000624 (0000ms, 0805ms total)
T23AC 015:896 JLINK_ReadReg(CFBP)  returns 0x02000000 (0000ms, 0805ms total)
T03D4 015:899 JLINK_ReadMem (0x20000628, 0x0004 Bytes, ...) -- Read from C cache (4 bytes @ 0x20000628) -- Data:  00 00 00 00  returns 0x00 (0000ms, 0805ms total)
T03D4 015:899 JLINK_ReadMemU32(0xE0001004, 0x0001 Items, ...) -- Data:  8D DB 55 05  returns 0x01 (0000ms, 0805ms total)
T03D4 015:899 JLINK_ReadMem (0x080003E2, 0x0002 Bytes, ...) -- Read from C cache (2 bytes @ 0x080003E2) -- Data:  4F F4  returns 0x00 (0000ms, 0805ms total)
T03D4 015:899 JLINK_ReadMem (0x080003E4, 0x001C Bytes, ...) -- Read from C cache (28 bytes @ 0x080003E4) -- Data:  C8 70 0E F0 EF FB 41 48 B0 F9 06 30 B0 F9 02 10 ...  returns 0x00 (0000ms, 0805ms total)
T03D4 015:899 JLINK_ReadMem (0x08000400, 0x0020 Bytes, ...) -- Read from C cache (32 bytes @ 0x08000400) -- Data:  0E F0 E2 FB 3A 48 B0 F9 02 20 64 21 28 46 0E F0 ...  returns 0x00 (0000ms, 0805ms total)
T23AC 016:295 JLINK_Step() -- Read from C cache (2 bytes @ 0x080003E2) -- Read from C cache (2 bytes @ 0x080003E4) -- Simulated  returns 0x00 (0001ms, 0806ms total)
T23AC 016:296 JLINK_ReadReg(R15 (PC))  returns 0x080003E6 (0000ms, 0806ms total)
T23AC 016:296 JLINK_ReadReg(XPSR)  returns 0x81000000 (0000ms, 0806ms total)
T23AC 016:296 JLINK_SetBPEx(Addr = 0x080003EA, Type = 0xFFFFFFF2)  returns 0x00000007 (0000ms, 0806ms total)
T23AC 016:296 JLINK_Go() -- CPU_WriteMem(4 bytes @ 0xE0002000) -- CPU_WriteMem(4 bytes @ 0xE0002008) -- CPU_WriteMem(4 bytes @ 0xE0001004) (0004ms, 0810ms total)
T23AC 016:400 JLINK_IsHalted()  returns FALSE (0001ms, 0811ms total)
T23AC 016:501 JLINK_IsHalted()  returns TRUE (0003ms, 0813ms total)
T23AC 016:504 JLINK_Halt()  returns 0x00 (0000ms, 0810ms total)
T23AC 016:504 JLINK_IsHalted()  returns TRUE (0000ms, 0810ms total)
T23AC 016:504 JLINK_IsHalted()  returns TRUE (0000ms, 0810ms total)
T23AC 016:504 JLINK_IsHalted()  returns TRUE (0000ms, 0810ms total)
T23AC 016:504 JLINK_ReadReg(R15 (PC))  returns 0x080003EA (0000ms, 0810ms total)
T23AC 016:504 JLINK_ReadReg(XPSR)  returns 0x61000000 (0000ms, 0810ms total)
T23AC 016:504 JLINK_ClrBPEx(BPHandle = 0x00000007)  returns 0x00 (0000ms, 0810ms total)
T23AC 016:504 JLINK_ReadMemU32(0xE000ED30, 0x0001 Items, ...) -- CPU_ReadMem(4 bytes @ 0xE000ED30) -- Data:  03 00 00 00  returns 0x01 (0001ms, 0811ms total)
T23AC 016:505 JLINK_ReadMemU32(0xE0001028, 0x0001 Items, ...) -- CPU_ReadMem(4 bytes @ 0xE0001028) -- Data:  00 00 00 00  returns 0x01 (0001ms, 0812ms total)
T23AC 016:506 JLINK_ReadMemU32(0xE0001038, 0x0001 Items, ...) -- CPU_ReadMem(4 bytes @ 0xE0001038) -- Data:  00 02 00 00  returns 0x01 (0001ms, 0813ms total)
